name,type,start_time,duration,"ack","address","read","data"
"I2C","start",1.99651806,0.000000004,,,,
"I2C","address",1.99652944,0.000073652,true,0x20,false,
"I2C","data",1.996606508,0.000069168,true,,,0x40
"I2C","data",1.996679112,0.000069164,true,,,0x42
"I2C","data",1.996751696,0.000069164,true,,,0x07
"I2C","stop",1.996828628,0.000000004,,,,
"I2C","start",1.997194884,0.000000004,,,,
"I2C","address",1.997203216,0.000069168,true,0x20,false,
"I2C","data",1.9972758,0.000069168,true,,,0x41
"I2C","data",1.9973484,0.000069168,true,,,0x00
"I2C","data",1.997420984,0.000069168,true,,,0x04
"I2C","stop",1.99749792,0.000000004,,,,
"I2C","start",1.997897476,0.000000004,,,,
"I2C","address",1.997905808,0.000069168,true,0x20,false,
"I2C","data",1.997978392,0.000069168,true,,,0x09
"I2C","data",1.998050992,0.000073584,true,,,0xE9
"I2C","data",1.998127996,0.000069164,true,,,0x01
"I2C","stop",1.998204928,0.000000004,,,,
"I2C","start",1.998570184,0.000000004,,,,
"I2C","address",1.998578516,0.000069168,true,0x20,false,
"I2C","data",1.9986511,0.000069168,true,,,0x01
"I2C","data",1.9987237,0.000069168,true,,,0x00
"I2C","data",1.998796284,0.000069168,true,,,0x00
"I2C","stop",1.99887322,0.000000004,,,,
"I2C","start",1.999238408,0.000000004,,,,
"I2C","address",1.99924674,0.000069168,true,0x20,false,
"I2C","data",1.999319324,0.000069168,true,,,0x67
"I2C","data",1.999391924,0.000069168,true,,,0x00
"I2C","data",1.999464508,0.000069168,true,,,0x00
"I2C","stop",1.999541444,0.000000004,,,,
"I2C","start",1.999936,0.000000004,,,,
"I2C","address",1.999944332,0.000069168,true,0x20,false,
"I2C","data",2.000016916,0.0000736,true,,,0x72
"I2C","data",2.000093952,0.000069164,true,,,0x06
"I2C","data",2.000166536,0.000069164,true,,,0x50
"I2C","stop",2.000243468,0.000000004,,,,
"I2C","start",2.000608724,0.000000004,,,,
"I2C","address",2.000617056,0.000069168,true,0x20,false,
"I2C","data",2.00068964,0.000069168,true,,,0x42
"I2C","data",2.00076224,0.000069168,true,,,0x00
"I2C","data",2.000834824,0.000069168,true,,,0x03
"I2C","stop",2.00091176,0.000000004,,,,
"I2C","start",2.001276948,0.000000004,,,,
"I2C","address",2.00128528,0.000069168,true,0x20,false,
"I2C","data",2.001357864,0.000069168,true,,,0x43
"I2C","data",2.001430464,0.000069168,true,,,0xA9
"I2C","data",2.001503052,0.000069164,true,,,0x80
"I2C","stop",2.001579984,0.000000004,,,,
"I2C","start",2.00197824,0.000000004,,,,
"I2C","address",2.001986572,0.000069168,true,0x20,false,
"I2C","data",2.002059156,0.000073584,true,,,0x44
"I2C","data",2.002136176,0.000069164,true,,,0x00
"I2C","data",2.00220876,0.000069164,true,,,0x40
"I2C","stop",2.002285692,0.000000004,,,,
"I2C","start",2.00265088,0.000000004,,,,
"I2C","address",2.002659212,0.000069168,true,0x20,false,
"I2C","data",2.002731796,0.000069168,true,,,0x45
"I2C","data",2.0028044,0.000069164,true,,,0x00
"I2C","data",2.002876984,0.000069164,true,,,0x00
"I2C","stop",2.002953916,0.000000004,,,,
"I2C","start",2.003319172,0.000000004,,,,
"I2C","address",2.003327504,0.000069168,true,0x20,false,
"I2C","data",2.003400088,0.000069168,true,,,0x46
"I2C","data",2.003472688,0.000069168,true,,,0x0F
"I2C","data",2.003545272,0.000069168,true,,,0xA0
"I2C","stop",2.003622208,0.000000004,,,,
"I2C","start",2.00402038,0.000000004,,,,
"I2C","address",2.004028712,0.0000736,true,0x20,false,
"I2C","data",2.004105732,0.000069164,true,,,0x47
"I2C","data",2.004178332,0.000069164,true,,,0x10
"I2C","data",2.004250916,0.000069164,true,,,0x01
"I2C","stop",2.004327852,0.000000004,,,,
"I2C","start",2.004693088,0.000000004,,,,
"I2C","address",2.00470142,0.000069168,true,0x20,false,
"I2C","data",2.004774004,0.000069168,true,,,0x48
"I2C","data",2.004846604,0.000069168,true,,,0x48
"I2C","data",2.004919188,0.000069168,true,,,0x20
"I2C","stop",2.004996124,0.000000004,,,,
"I2C","start",2.00536136,0.000000004,,,,
"I2C","address",2.005369696,0.000069164,true,0x20,false,
"I2C","data",2.00544228,0.000069164,true,,,0x49
"I2C","data",2.00551488,0.000069168,true,,,0x20
"I2C","data",2.005587464,0.000069168,true,,,0x01
"I2C","stop",2.0056644,0.000000004,,,,
"I2C","start",2.006062336,0.000000004,,,,
"I2C","address",2.006070668,0.000073584,true,0x20,false,
"I2C","data",2.006147672,0.000069164,true,,,0x4A
"I2C","data",2.006220272,0.000069168,true,,,0x48
"I2C","data",2.006292856,0.000069168,true,,,0x20
"I2C","stop",2.006369792,0.000000004,,,,
"I2C","start",2.006735028,0.000000004,,,,
"I2C","address",2.00674336,0.000069168,true,0x20,false,
"I2C","data",2.006815944,0.000069168,true,,,0x4B
"I2C","data",2.006888548,0.000069164,true,,,0x00
"I2C","data",2.006961132,0.000069164,true,,,0x01
"I2C","stop",2.007038064,0.000000004,,,,
"I2C","start",2.007403304,0.000000004,,,,
"I2C","address",2.007411636,0.000069168,true,0x20,false,
"I2C","data",2.00748422,0.000069168,true,,,0x4C
"I2C","data",2.00755682,0.000069168,true,,,0x09
"I2C","data",2.007629404,0.000069168,true,,,0xA0
"I2C","stop",2.00770634,0.000000004,,,,
"I2C","start",2.008104228,0.000000004,,,,
"I2C","address",2.00811256,0.000069168,true,0x20,false,
"I2C","data",2.008185144,0.000069168,true,,,0x4D
"I2C","data",2.008257744,0.000069168,true,,,0x00
"I2C","data",2.008330328,0.000069168,true,,,0x00
"I2C","stop",2.008407264,0.000000004,,,,
"I2C","start",2.008772452,0.000000004,,,,
"I2C","address",2.008780784,0.000069168,true,0x20,false,
"I2C","data",2.008853368,0.000069168,true,,,0x4E
"I2C","data",2.008925972,0.000069164,true,,,0x00
"I2C","data",2.008998556,0.000069164,true,,,0x01
"I2C","stop",2.009075488,0.000000004,,,,
"I2C","start",2.009440728,0.000000004,,,,
"I2C","address",2.00944906,0.000069164,true,0x20,false,
"I2C","data",2.009521644,0.000069168,true,,,0x4F
"I2C","data",2.009594244,0.000069168,true,,,0x00
"I2C","data",2.009666828,0.000069168,true,,,0x06
"I2C","stop",2.009743764,0.000000004,,,,
"I2C","start",2.010136084,0.000000004,,,,
"I2C","address",2.010144416,0.000069168,true,0x20,false,
"I2C","data",2.010217,0.000069168,true,,,0x50
"I2C","data",2.010289604,0.000069164,true,,,0xB6
"I2C","data",2.010362188,0.000069164,true,,,0xC0
"I2C","stop",2.01043912,0.000000004,,,,
"I2C","start",2.010804308,0.000000004,,,,
"I2C","address",2.01081264,0.000069168,true,0x20,false,
"I2C","data",2.010885228,0.000069164,true,,,0x51
"I2C","data",2.010957828,0.000069164,true,,,0x00
"I2C","data",2.011030412,0.000069164,true,,,0x1E
"I2C","stop",2.011107348,0.000000004,,,,
"I2C","start",2.011472584,0.000000004,,,,
"I2C","address",2.011480916,0.000069168,true,0x20,false,
"I2C","data",2.0115535,0.000069168,true,,,0x52
"I2C","data",2.0116261,0.000069168,true,,,0x84
"I2C","data",2.011698684,0.000069168,true,,,0x80
"I2C","stop",2.01177562,0.000000004,,,,
"I2C","start",2.01216774,0.000000004,,,,
"I2C","address",2.012176076,0.000069164,true,0x20,false,
"I2C","data",2.01224866,0.000069164,true,,,0x53
"I2C","data",2.01232126,0.000069168,true,,,0x0A
"I2C","data",2.012393844,0.000069168,true,,,0x02
"I2C","stop",2.01247078,0.000000004,,,,
"I2C","start",2.012836032,0.000000004,,,,
"I2C","address",2.012844364,0.000069168,true,0x20,false,
"I2C","data",2.012916948,0.000069168,true,,,0x54
"I2C","data",2.012989552,0.000069164,true,,,0xAA
"I2C","data",2.013062136,0.000069164,true,,,0xAB
"I2C","stop",2.013139068,0.000000004,,,,
"I2C","start",2.01350424,0.000000004,,,,
"I2C","address",2.013512572,0.000069168,true,0x20,false,
"I2C","data",2.013585156,0.000069168,true,,,0x55
"I2C","data",2.01365776,0.000069164,true,,,0x00
"I2C","data",2.013730344,0.000069164,true,,,0x00
"I2C","stop",2.013807276,0.000000004,,,,
"I2C","start",2.014199464,0.000000004,,,,
"I2C","address",2.0142078,0.000069164,true,0x20,false,
"I2C","data",2.014280384,0.000069164,true,,,0x56
"I2C","data",2.014352984,0.0000701,true,,,0x00
"I2C","data",2.0144265,0.000069168,true,,,0x11
"I2C","stop",2.014503436,0.000000004,,,,
"I2C","start",2.014868608,0.000000004,,,,
"I2C","address",2.01487694,0.000069168,true,0x20,false,
"I2C","data",2.014949524,0.000069168,true,,,0x57
"I2C","data",2.015022124,0.000069168,true,,,0xFF
"I2C","data",2.015094708,0.000069168,true,,,0xFF
"I2C","stop",2.015171644,0.000000004,,,,
"I2C","start",2.015536796,0.000000004,,,,
"I2C","address",2.015545132,0.000069164,true,0x20,false,
"I2C","data",2.015617716,0.000069164,true,,,0x58
"I2C","data",2.015690316,0.000069168,true,,,0xFF
"I2C","data",2.0157629,0.000069168,true,,,0xEF
"I2C","stop",2.015839836,0.000000004,,,,
"I2C","start",2.016230956,0.000000004,,,,
"I2C","address",2.016239288,0.000069168,true,0x20,false,
"I2C","data",2.016311872,0.000069168,true,,,0x59
"I2C","data",2.016384472,0.000069168,true,,,0x00
"I2C","data",2.016457056,0.000069168,true,,,0x00
"I2C","stop",2.016533992,0.000000004,,,,
"I2C","start",2.016899228,0.000000004,,,,
"I2C","address",2.016907564,0.000069164,true,0x20,false,
"I2C","data",2.016980148,0.000069168,true,,,0x5A
"I2C","data",2.017052748,0.000069168,true,,,0x00
"I2C","data",2.017125332,0.000069168,true,,,0x00
"I2C","stop",2.017202268,0.000000004,,,,
"I2C","start",2.017567488,0.000000004,,,,
"I2C","address",2.01757582,0.000069168,true,0x20,false,
"I2C","data",2.017648404,0.000069168,true,,,0x5B
"I2C","data",2.017721004,0.000069168,true,,,0x00
"I2C","data",2.017793592,0.000103548,true,,,0x22
"I2C","stop",2.017904908,0.000000004,,,,
"I2C","start",2.018270128,0.000000004,,,,
"I2C","address",2.018278464,0.000069164,true,0x20,false,
"I2C","data",2.018351048,0.000069164,true,,,0x5C
"I2C","data",2.018423648,0.000069168,true,,,0x00
"I2C","data",2.018496232,0.000069168,true,,,0x22
"I2C","stop",2.018573168,0.000000004,,,,
"I2C","start",2.01893842,0.000000004,,,,
"I2C","address",2.018946752,0.000069168,true,0x20,false,
"I2C","data",2.019019336,0.000069168,true,,,0x5D
"I2C","data",2.01909194,0.000069164,true,,,0x19
"I2C","data",2.019164524,0.000069164,true,,,0x19
"I2C","stop",2.019241456,0.000000004,,,,
"I2C","start",2.019606644,0.000000004,,,,
"I2C","address",2.01961498,0.000069164,true,0x20,false,
"I2C","data",2.019687564,0.000069164,true,,,0x5E
"I2C","data",2.019760164,0.000069164,true,,,0xFF
"I2C","data",2.019832748,0.0001037,true,,,0x00
"I2C","stop",2.019944216,0.000000004,,,,
"I2C","start",2.020310768,0.000000004,,,,
"I2C","address",2.020319104,0.000069164,true,0x20,false,
"I2C","data",2.020391688,0.000069164,true,,,0x61
"I2C","data",2.020464288,0.000069168,true,,,0x00
"I2C","data",2.020536872,0.000069168,true,,,0x21
"I2C","stop",2.020613808,0.000000004,,,,
"I2C","start",2.020978996,0.000000004,,,,
"I2C","address",2.020987328,0.000069168,true,0x20,false,
"I2C","data",2.021059912,0.000069168,true,,,0x62
"I2C","data",2.021132512,0.000069168,true,,,0x00
"I2C","data",2.021205096,0.000069168,true,,,0x21
"I2C","stop",2.021282032,0.000000004,,,,
"I2C","start",2.021647284,0.000000004,,,,
"I2C","address",2.02165562,0.000069164,true,0x20,false,
"I2C","data",2.021728204,0.000069164,true,,,0x63
"I2C","data",2.021800804,0.0001037,true,,,0x00
"I2C","data",2.02190792,0.000069168,true,,,0x21
"I2C","stop",2.021984856,0.000000004,,,,
"I2C","start",2.022352928,0.000000004,,,,
"I2C","address",2.02236126,0.000069168,true,0x20,false,
"I2C","data",2.022433844,0.000069168,true,,,0x64
"I2C","data",2.022506444,0.000069168,true,,,0x00
"I2C","data",2.022579028,0.000069168,true,,,0x21
"I2C","stop",2.022655964,0.000000004,,,,
"I2C","start",2.023021216,0.000000004,,,,
"I2C","address",2.023029552,0.000069164,true,0x20,false,
"I2C","data",2.023102136,0.000069164,true,,,0x6E
"I2C","data",2.023174736,0.000069168,true,,,0xC3
"I2C","data",2.02324732,0.000069168,true,,,0xFC
"I2C","stop",2.023324256,0.000000004,,,,
"I2C","start",2.023689444,0.000000004,,,,
"I2C","address",2.023697776,0.000069168,true,0x20,false,
"I2C","data",2.02377036,0.000069168,true,,,0x66
"I2C","data",2.02384296,0.0001037,true,,,0x0F
"I2C","data",2.02395008,0.000069164,true,,,0x00
"I2C","stop",2.024027012,0.000000004,,,,
"I2C","start",2.024395068,0.000000004,,,,
"I2C","address",2.0244034,0.000069168,true,0x20,false,
"I2C","data",2.024475984,0.000069168,true,,,0x6C
"I2C","data",2.024548584,0.000069168,true,,,0x99
"I2C","data",2.024621172,0.000069164,true,,,0x90
"I2C","stop",2.024698104,0.000000004,,,,
"I2C","start",2.02506334,0.000000004,,,,
"I2C","address",2.025071676,0.000069164,true,0x20,false,
"I2C","data",2.02514426,0.000069168,true,,,0x6D
"I2C","data",2.02521686,0.000069168,true,,,0x95
"I2C","data",2.025289444,0.000069168,true,,,0x80
"I2C","stop",2.02536638,0.000000004,,,,
"I2C","start",2.025731548,0.000000004,,,,
"I2C","address",2.025739884,0.000069164,true,0x20,false,
"I2C","data",2.025812468,0.0001035,true,,,0x70
"I2C","data",2.0259194,0.000069168,true,,,0x26
"I2C","data",2.025991984,0.000069168,true,,,0xA0
"I2C","stop",2.02606892,0.000000004,,,,
"I2C","start",2.026438508,0.000000004,,,,
"I2C","address",2.02644684,0.000069168,true,0x20,false,
"I2C","data",2.026519424,0.000069168,true,,,0x76
"I2C","data",2.026592028,0.000069164,true,,,0x00
"I2C","data",2.026664612,0.000069164,true,,,0x21
"I2C","stop",2.026741544,0.000000004,,,,
"I2C","start",2.027106784,0.000000004,,,,
"I2C","address",2.027115116,0.000069168,true,0x20,false,
"I2C","data",2.0271877,0.000069168,true,,,0x02
"I2C","data",2.0272603,0.000069168,true,,,0x10
"I2C","data",2.027332884,0.000069168,true,,,0x3C
"I2C","stop",2.02740982,0.000000004,,,,
"I2C","start",2.027774992,0.000000004,,,,
"I2C","address",2.027783324,0.000069168,true,0x20,false,
"I2C","data",2.027855908,0.000103584,true,,,0x04
"I2C","data",2.027962924,0.000069168,true,,,0x03
"I2C","data",2.028035508,0.0000736,true,,,0x0C
"I2C","stop",2.02811688,0.000000004,,,,
"I2C","start",2.028482132,0.000000004,,,,
"I2C","address",2.028490464,0.000069168,true,0x20,false,
"I2C","data",2.028563048,0.000069168,true,,,0x09
"I2C","data",2.028635652,0.000069164,true,,,0x69
"I2C","data",2.028708236,0.000069164,true,,,0x01
"I2C","stop",2.028785168,0.000000004,,,,
"I2C","start",2.029150356,0.000000004,,,,
"I2C","address",2.029158688,0.000069168,true,0x20,false,
"I2C","data",2.029231272,0.000069168,true,,,0x0A
"I2C","data",2.029303876,0.000069164,true,,,0x42
"I2C","data",2.02937646,0.000069164,true,,,0x00
"I2C","stop",2.029453392,0.000000004,,,,
"I2C","start",2.029818648,0.000000004,,,,
"I2C","address",2.02982698,0.000103716,true,0x20,false,
"I2C","data",2.029934116,0.000069164,true,,,0x0B
"I2C","data",2.030006716,0.000073584,true,,,0xC0
"I2C","data",2.030083716,0.000069168,true,,,0x3C
"I2C","stop",2.030160652,0.000000004,,,,
"I2C","start",2.030525904,0.000000004,,,,
"I2C","address",2.03053424,0.000069164,true,0x20,false,
"I2C","data",2.030606824,0.000069164,true,,,0x05
"I2C","data",2.030679424,0.000069168,true,,,0x00
"I2C","data",2.030752008,0.000069168,true,,,0x10
"I2C","stop",2.030828944,0.000000004,,,,
"I2C","start",2.031194132,0.000000004,,,,
"I2C","address",2.031202464,0.000069168,true,0x20,false,
"I2C","data",2.031275048,0.000069168,true,,,0x06
"I2C","data",2.031347648,0.000069168,true,,,0x01
"I2C","data",2.031420232,0.000069168,true,,,0x22
"I2C","stop",2.031497168,0.000000004,,,,
"I2C","start",2.03189692,0.000000004,,,,
"I2C","address",2.031905256,0.000069164,true,0x20,false,
"I2C","data",2.03197784,0.000069164,true,,,0x07
"I2C","data",2.03205044,0.0000736,true,,,0x01
"I2C","data",2.032127456,0.000069168,true,,,0xB2
"I2C","stop",2.032204392,0.000000004,,,,
"I2C","start",2.03256958,0.000000004,,,,
"I2C","address",2.032577912,0.000069168,true,0x20,false,
"I2C","data",2.032650496,0.000069168,true,,,0x08
"I2C","data",2.032723096,0.000069168,true,,,0x00
"I2C","data",2.032795684,0.000069164,true,,,0x1C
"I2C","stop",2.032872616,0.000000004,,,,
"I2C","start",2.033237804,0.000000004,,,,
"I2C","address",2.033246136,0.000069168,true,0x20,false,
"I2C","data",2.03331872,0.000069168,true,,,0x0D
"I2C","data",2.033391324,0.000069164,true,,,0x10
"I2C","data",2.033463908,0.000069164,true,,,0x00
"I2C","stop",2.03354084,0.000000004,,,,
"I2C","start",2.033939196,0.000000004,,,,
"I2C","address",2.033947528,0.000069168,true,0x20,false,
"I2C","data",2.034020112,0.0000736,true,,,0x0E
"I2C","data",2.034097148,0.000069164,true,,,0x40
"I2C","data",2.034169732,0.000069164,true,,,0x00
"I2C","stop",2.034246668,0.000000004,,,,
"I2C","start",2.034611836,0.000000004,,,,
"I2C","address",2.034620168,0.000069168,true,0x20,false,
"I2C","data",2.034692756,0.000069164,true,,,0x14
"I2C","data",2.034765356,0.000069164,true,,,0x5A
"I2C","data",2.03483794,0.000069164,true,,,0x03
"I2C","stop",2.034914876,0.000000004,,,,
"I2C","start",2.035280112,0.000000004,,,,
"I2C","address",2.035288444,0.000069168,true,0x20,false,
"I2C","data",2.035361028,0.000069168,true,,,0x15
"I2C","data",2.035433628,0.000069168,true,,,0x17
"I2C","data",2.035506212,0.000069168,true,,,0x08
"I2C","stop",2.035583148,0.000000004,,,,
"I2C","start",2.03598122,0.000000004,,,,
"I2C","address",2.035989552,0.000069168,true,0x20,false,
"I2C","data",2.036062136,0.0000736,true,,,0x17
"I2C","data",2.036139172,0.000069164,true,,,0x02
"I2C","data",2.036211756,0.000069164,true,,,0x10
"I2C","stop",2.036288692,0.000000004,,,,
"I2C","start",2.03665386,0.000000004,,,,
"I2C","address",2.036662192,0.000069168,true,0x20,false,
"I2C","data",2.036734776,0.000069168,true,,,0x20
"I2C","data",2.03680738,0.000069164,true,,,0x00
"I2C","data",2.036879964,0.000069164,true,,,0x00
"I2C","stop",2.0369569,0.000000004,,,,
"I2C","start",2.037322136,0.000000004,,,,
"I2C","address",2.037330468,0.000069168,true,0x20,false,
"I2C","data",2.037403052,0.000069168,true,,,0x21
"I2C","data",2.037475652,0.000069168,true,,,0x00
"I2C","data",2.037548236,0.000069168,true,,,0x00
"I2C","stop",2.037625172,0.000000004,,,,
"I2C","start",2.038023476,0.000000004,,,,
"I2C","address",2.038031808,0.0000736,true,0x20,false,
"I2C","data",2.038108828,0.000069164,true,,,0x22
"I2C","data",2.038181428,0.000069168,true,,,0x00
"I2C","data",2.038254012,0.000069168,true,,,0x00
"I2C","stop",2.038330948,0.000000004,,,,
"I2C","start",2.038696136,0.000000004,,,,
"I2C","address",2.038704468,0.000069168,true,0x20,false,
"I2C","data",2.038777052,0.000069168,true,,,0x23
"I2C","data",2.038849652,0.000069168,true,,,0x1D
"I2C","data",2.038922236,0.000069168,true,,,0xDC
"I2C","stop",2.038999172,0.000000004,,,,
"I2C","start",2.039364424,0.000000004,,,,
"I2C","address",2.03937276,0.000069164,true,0x20,false,
"I2C","data",2.039445344,0.000069164,true,,,0x24
"I2C","data",2.039517944,0.000069168,true,,,0x1D
"I2C","data",2.039590528,0.000069168,true,,,0x5E
"I2C","stop",2.039667464,0.000000004,,,,
"I2C","start",2.040065852,0.000000004,,,,
"I2C","address",2.040074184,0.0000736,true,0x20,false,
"I2C","data",2.0401512,0.000069168,true,,,0x25
"I2C","data",2.040223804,0.000069164,true,,,0x1C
"I2C","data",2.040296388,0.000069164,true,,,0xE2
"I2C","stop",2.04037332,0.000000004,,,,
"I2C","start",2.040738508,0.000000004,,,,
"I2C","address",2.04074684,0.000069168,true,0x20,false,
"I2C","data",2.040819424,0.000069168,true,,,0x26
"I2C","data",2.040892028,0.000069164,true,,,0x1C
"I2C","data",2.040964612,0.000069164,true,,,0x64
"I2C","stop",2.041041544,0.000000004,,,,
"I2C","start",2.041406732,0.000000004,,,,
"I2C","address",2.041415064,0.000069168,true,0x20,false,
"I2C","data",2.041487652,0.000069164,true,,,0x27
"I2C","data",2.041560252,0.000069164,true,,,0x17
"I2C","data",2.041632836,0.000069164,true,,,0xD0
"I2C","stop",2.041709772,0.000000004,,,,
"I2C","start",2.042107656,0.000000004,,,,
"I2C","address",2.042115992,0.000069164,true,0x20,false,
"I2C","data",2.042188576,0.000069164,true,,,0x28
"I2C","data",2.042261176,0.000069168,true,,,0x16
"I2C","data",2.04233376,0.000069168,true,,,0xD4
"I2C","stop",2.042410696,0.000000004,,,,
"I2C","start",2.042775948,0.000000004,,,,
"I2C","address",2.04278428,0.000069168,true,0x20,false,
"I2C","data",2.042856868,0.000069164,true,,,0x29
"I2C","data",2.042929468,0.000069164,true,,,0x15
"I2C","data",2.043002052,0.000069164,true,,,0xDC
"I2C","stop",2.043078988,0.000000004,,,,
"I2C","start",2.043444224,0.000000004,,,,
"I2C","address",2.043452556,0.000069168,true,0x20,false,
"I2C","data",2.04352514,0.000069168,true,,,0x2A
"I2C","data",2.04359774,0.000069168,true,,,0x15
"I2C","data",2.043670324,0.000069168,true,,,0xDC
"I2C","stop",2.04374726,0.000000004,,,,
"I2C","start",2.044139316,0.000000004,,,,
"I2C","address",2.044147648,0.000069168,true,0x20,false,
"I2C","data",2.044220232,0.000069168,true,,,0x2B
"I2C","data",2.044292832,0.000069168,true,,,0x15
"I2C","data",2.044365416,0.0000701,true,,,0xDC
"I2C","stop",2.044443284,0.000000004,,,,
"I2C","start",2.044808456,0.000000004,,,,
"I2C","address",2.044816788,0.000069168,true,0x20,false,
"I2C","data",2.044889372,0.000069168,true,,,0x2C
"I2C","data",2.044961976,0.000069164,true,,,0x15
"I2C","data",2.04503456,0.000069164,true,,,0xDC
"I2C","stop",2.045111492,0.000000004,,,,
"I2C","start",2.045476648,0.000000004,,,,
"I2C","address",2.04548498,0.000069168,true,0x20,false,
"I2C","data",2.045557564,0.000069168,true,,,0x2D
"I2C","data",2.045630164,0.000069168,true,,,0x15
"I2C","data",2.045702748,0.000069168,true,,,0xDC
"I2C","stop",2.045779684,0.000000004,,,,
"I2C","start",2.046170788,0.000000004,,,,
"I2C","address",2.04617912,0.000069168,true,0x20,false,
"I2C","data",2.046251704,0.000069168,true,,,0x2E
"I2C","data",2.046324308,0.000069164,true,,,0x15
"I2C","data",2.046396892,0.000069164,true,,,0xDC
"I2C","stop",2.046473824,0.000000004,,,,
"I2C","start",2.046838996,0.000000004,,,,
"I2C","address",2.046847328,0.000069168,true,0x20,false,
"I2C","data",2.046919912,0.000069168,true,,,0x2F
"I2C","data",2.046992516,0.000069164,true,,,0x15
"I2C","data",2.0470651,0.000069164,true,,,0xDC
"I2C","stop",2.047142032,0.000000004,,,,
"I2C","start",2.049566428,0.000000004,,,,
"I2C","address",2.04957476,0.000069168,true,0x20,false,
"I2C","data",2.049647344,0.000069168,true,,,0x72
"I2C","data",2.049719948,0.000069164,true,,,0x06
"I2C","data",2.049792532,0.000069164,true,,,0x53
"I2C","stop",2.049903964,0.000000004,,,,
"I2C","start",2.05025062,0.000000004,,,,
"I2C","address",2.050258952,0.000069168,true,0x20,false,
"I2C","data",2.050331536,0.000069168,true,,,0x67
"I2C","data",2.050404136,0.000069168,true,,,0x1E
"I2C","data",2.05047672,0.000069168,true,,,0x40
"I2C","stop",2.050553656,0.000000004,,,,
"I2C","start",2.050918844,0.000000004,,,,
"I2C","address",2.050927176,0.000069168,true,0x20,false,
"I2C","data",2.05099976,0.000069168,true,,,0x01
"I2C","data",2.051072364,0.000069164,true,,,0x82
"I2C","data",2.051144948,0.000069164,true,,,0x22
"I2C","stop",2.05122188,0.000000004,,,,
"I2C","start",2.051587136,0.000000004,,,,
"I2C","address",2.051595468,0.000069168,true,0x20,false,
"I2C","data",2.051668052,0.000069168,true,,,0x41
"I2C","data",2.051740652,0.000069168,true,,,0xC8
"I2C","data",2.051813236,0.00010372,true,,,0x44
"I2C","stop",2.051924724,0.000000004,,,,
"I2C","start",2.052292728,0.000000004,,,,
"I2C","address",2.05230106,0.000069168,true,0x20,false,
"I2C","data",2.052373644,0.000069168,true,,,0x40
"I2C","data",2.052446244,0.000069168,true,,,0x02
"I2C","data",2.052518828,0.000069168,true,,,0x07
"I2C","stop",2.052595764,0.000000004,,,,
